T5AE8 7878:027 SEGGER J-Link V6.46 Log File (0000ms, 32824ms total)
T5AE8 7878:027 DLL Compiled: May 23 2019 17:49:56 (0000ms, 32824ms total)
T5AE8 7878:027 Logging started @ 2020-11-12 18:02 (0000ms, 32824ms total)
T5AE8 7878:027 JLINK_SetWarnOutHandler(...) (0000ms, 32824ms total)
T5AE8 7878:027 JLINK_OpenEx(...)
Firmware: J-Link V9 compiled May 17 2019 09:50:41
Hardware: V9.60
S/N: 59601487
Feature(s): RDI, GDB, FlashDL, FlashBP, JFlash
TELNET listener socket opened on port 19021Device "CORTEX-M0" selected.WEBSRV 
Starting webserver (0074ms, 32898ms total)
T5AE8 7878:027 WEBSRV Webserver running on local port 19080 (0075ms, 32899ms total)
T5AE8 7878:027   returns O.K. (0075ms, 32899ms total)
T5AE8 7878:102 JLINK_GetEmuCaps()  returns 0xB9FF7BBF (0000ms, 32899ms total)
T5AE8 7878:103 JLINK_TIF_GetAvailable(...) (0001ms, 32900ms total)
T5AE8 7878:104 JLINK_SetErrorOutHandler(...) (0000ms, 32900ms total)
T5AE8 7878:104 JLINK_ExecCommand("ProjectFile = "F:\develop\KlST\SPA\Program\SPA4G_GIT\SW_HyClor_2020\MDK\JLinkSettings.ini"", ...). Device "CORTEX-M0" selected.  returns 0x00 (0015ms, 32915ms total)
T5AE8 7878:129 JLINK_ExecCommand("Device = HC32L136J8TA", ...). Device "CORTEX-M0" selected.  returns 0x00 (0010ms, 32925ms total)
T5AE8 7878:139 JLINK_ExecCommand("DisableConnectionTimeout", ...).   returns 0x01 (0000ms, 32925ms total)
T5AE8 7878:139 JLINK_GetHardwareVersion()  returns 0x17700 (0000ms, 32925ms total)
T5AE8 7878:139 JLINK_GetDLLVersion()  returns 64600 (0000ms, 32925ms total)
T5AE8 7878:139 JLINK_GetFirmwareString(...) (0000ms, 32925ms total)
T5AE8 7878:165 JLINK_GetDLLVersion()  returns 64600 (0000ms, 32925ms total)
T5AE8 7878:165 JLINK_GetCompileDateTime() (0000ms, 32925ms total)
T5AE8 7878:172 JLINK_GetFirmwareString(...) (0000ms, 32925ms total)
T5AE8 7878:179 JLINK_GetHardwareVersion()  returns 0x17700 (0000ms, 32925ms total)
T5AE8 7878:208 JLINK_TIF_Select(JLINKARM_TIF_SWD)  returns 0x00 (0004ms, 32929ms total)
T5AE8 7878:212 JLINK_SetSpeed(5000) (0001ms, 32930ms total)
T5AE8 7878:213 JLINK_GetId() >0x10B TIF>Found SW-DP with ID 0x0BC11477 >0x0D TIF> >0x28 TIF> >0x0D TIF> >0x28 TIF> >0x0D TIF> >0x28 TIF> >0x0D TIF> >0x28 TIF> >0x0D TIF> >0x21 TIF> >0x0D TIF> >0x28 TIF>Scanning AP map to find all available APs >0x0D TIF> >0x28 TIF> >0x0D TIF> >0x21 TIF> >0x0D TIF> >0x21 TIF> >0x0D TIF> >0x28 TIF> >0x0D TIF> >0x21 TIF> >0x0D TIF> >0x21 TIF>AP[1]: Stopped AP scan as end of AP map has been reachedAP[0]: AHB-AP (IDR: 0x04770031)Iterating through AP map to find AHB-AP to use
 >0x42 TIF> >0x28 TIF> >0x0D TIF> >0x28 TIF> >0x0D TIF> >0x21 TIF> >0x0D TIF> >0x21 TIF> >0x42 TIF> >0x28 TIF> >0x0D TIF> >0x28 TIF> >0x0D TIF> >0x28 TIF> >0x0D TIF> >0x21 TIF> >0x0D TIF> >0x21 TIF>AP[0]: Core foundAP[0]: AHB-AP ROM base: 0xE00FF000 >0x0D TIF> >0x28 TIF> >0x0D TIF> >0x28 TIF> >0x0D TIF> >0x28 TIF> >0x0D TIF> >0x21 TIF> >0x0D TIF> >0x21 TIF>CPUID register: 0x410CC601. Implementer code: 0x41 (ARM)Found Cortex-M0 r0p1, Little endian. -- Max. mem block: 0x00010F28
 -- CPU_ReadMem(4 bytes @ 0xE000EDF0) -- CPU_WriteMem(4 bytes @ 0xE000EDF0) -- CPU_ReadMem(4 bytes @ 0xE0002000)FPUnit: 4 code (BP) slots and 0 literal slots -- CPU_ReadMem(4 bytes @ 0xE000EDFC) -- CPU_WriteMem(4 bytes @ 0xE000EDFC) -- CPU_ReadMem(4 bytes @ 0xE0001000) -- CPU_WriteMem(4 bytes @ 0xE0001000)CoreSight components:ROMTbl[0] @ E00FF000 -- CPU_ReadMem(16 bytes @ 0xE00FF000) -- CPU_ReadMem(16 bytes @ 0xE000EFF0) -- CPU_ReadMem(16 bytes @ 0xE000EFE0)
ROMTbl[0][0]: E000E000, CID: B105E00D, PID: 000BB008 SCS -- CPU_ReadMem(16 bytes @ 0xE0001FF0) -- CPU_ReadMem(16 bytes @ 0xE0001FE0)ROMTbl[0][1]: E0001000, CID: B105E00D, PID: 000BB00A DWT -- CPU_ReadMem(16 bytes @ 0xE0002FF0) -- CPU_ReadMem(16 bytes @ 0xE0002FE0)ROMTbl[0][2]: E0002000, CID: B105E00D, PID: 000BB00B FPB >0x0D TIF> >0x21 TIF>  returns 0x0BC11477 (0274ms, 33204ms total)
T5AE8 7878:487 JLINK_GetDLLVersion()  returns 64600 (0000ms, 33204ms total)
T5AE8 7878:487 JLINK_CORE_GetFound()  returns 0x60000FF (0000ms, 33204ms total)
T5AE8 7878:487 JLINK_GetDebugInfo(0x100 = JLINKARM_ROM_TABLE_ADDR_INDEX) -- Value=0xE00FF000  returns 0x00 (0000ms, 33204ms total)
T5AE8 7878:495 JLINK_GetDebugInfo(0x100 = JLINKARM_ROM_TABLE_ADDR_INDEX) -- Value=0xE00FF000  returns 0x00 (0000ms, 33204ms total)
T5AE8 7878:495 JLINK_GetDebugInfo(0x101 = JLINKARM_DEBUG_INFO_ETM_ADDR_INDEX) -- Value=0x00000000  returns 0x00 (0000ms, 33204ms total)
T5AE8 7878:495 JLINK_ReadMemEx(0xE0041FF0, 0x0010 Bytes, ..., Flags = 0x02000004) -- CPU_ReadMem(16 bytes @ 0xE0041FF0) - Data: 00 00 00 00 00 00 00 00 00 00 00 00 00 00 00 00  returns 0x10 (0001ms, 33205ms total)
T5AE8 7878:496 JLINK_GetDebugInfo(0x102 = JLINKARM_DEBUG_INFO_MTB_ADDR_INDEX) -- Value=0x00000000  returns 0x00 (0000ms, 33205ms total)
T5AE8 7878:496 JLINK_GetDebugInfo(0x103 = JLINKARM_DEBUG_INFO_TPIU_ADDR_INDEX) -- Value=0x00000000  returns 0x00 (0000ms, 33205ms total)
T5AE8 7878:496 JLINK_ReadMemEx(0xE0040FF0, 0x0010 Bytes, ..., Flags = 0x02000004) -- CPU_ReadMem(16 bytes @ 0xE0040FF0) - Data: 00 00 00 00 00 00 00 00 00 00 00 00 00 00 00 00  returns 0x10 (0001ms, 33206ms total)
T5AE8 7878:497 JLINK_GetDebugInfo(0x104 = JLINKARM_DEBUG_INFO_ITM_ADDR_INDEX) -- Value=0xE0000000  returns 0x00 (0000ms, 33206ms total)
T5AE8 7878:497 JLINK_GetDebugInfo(0x105 = JLINKARM_DEBUG_INFO_DWT_ADDR_INDEX) -- Value=0xE0001000  returns 0x00 (0000ms, 33206ms total)
T5AE8 7878:497 JLINK_GetDebugInfo(0x106 = JLINKARM_DEBUG_INFO_FPB_ADDR_INDEX) -- Value=0xE0002000  returns 0x00 (0000ms, 33206ms total)
T5AE8 7878:497 JLINK_GetDebugInfo(0x107 = JLINKARM_DEBUG_INFO_NVIC_ADDR_INDEX) -- Value=0xE000E000  returns 0x00 (0000ms, 33206ms total)
T5AE8 7878:497 JLINK_GetDebugInfo(0x10C = JLINKARM_DEBUG_INFO_DBG_ADDR_INDEX) -- Value=0xE000EDF0  returns 0x00 (0000ms, 33206ms total)
T5AE8 7878:497 JLINK_GetDebugInfo(0x01 = Unknown) -- Value=0x00000000  returns 0x00 (0000ms, 33206ms total)
T5AE8 7878:497 JLINK_ReadMemU32(0xE000ED00, 0x0001 Items, ...) -- CPU_ReadMem(4 bytes @ 0xE000ED00) - Data: 01 C6 0C 41  returns 1 (0001ms, 33207ms total)
T5AE8 7878:498 JLINK_GetDebugInfo(0x10F = JLINKARM_DEBUG_INFO_HAS_CORTEX_M_SECURITY_EXT_INDEX) -- Value=0x00000000  returns 0x00 (0000ms, 33207ms total)
T5AE8 7878:498 JLINK_SetResetType(JLINKARM_CM3_RESET_TYPE_NORMAL)  returns JLINKARM_CM3_RESET_TYPE_NORMAL (0000ms, 33207ms total)
T5AE8 7878:498 JLINK_Reset() -- CPU is running -- CPU_WriteMem(4 bytes @ 0xE000EDF0) -- CPU is running -- CPU_WriteMem(4 bytes @ 0xE000EDFC)Reset: Halt core after reset via DEMCR.VC_CORERESET. >0x35 TIF>Reset: Reset device via AIRCR.SYSRESETREQ. -- CPU is running -- CPU_WriteMem(4 bytes @ 0xE000ED0C) >0x0D TIF> >0x28 TIF> -- CPU_ReadMem(4 bytes @ 0xE000EDF0) -- CPU_ReadMem(4 bytes @ 0xE000EDF0) -- CPU is running -- CPU_WriteMem(4 bytes @ 0xE000EDF0) -- CPU is running -- CPU_WriteMem(4 bytes @ 0xE000EDFC)
 -- CPU_ReadMem(4 bytes @ 0xE000EDF0) -- CPU_WriteMem(4 bytes @ 0xE0002000) -- CPU_ReadMem(4 bytes @ 0xE000EDFC) -- CPU_ReadMem(4 bytes @ 0xE0001000) -- CPU_WriteMem(4 bytes @ 0xE0001000) (0091ms, 33298ms total)
T5AE8 7878:589 JLINK_Halt()  returns 0x00 (0000ms, 33298ms total)
T5AE8 7878:589 JLINK_ReadMemU32(0xE000EDF0, 0x0001 Items, ...) -- CPU_ReadMem(4 bytes @ 0xE000EDF0) - Data: 03 00 03 00  returns 1 (0001ms, 33299ms total)
T5AE8 7878:590 JLINK_WriteU32(0xE000EDF0, 0xA05F0003) -- CPU_WriteMem(4 bytes @ 0xE000EDF0)  returns 0 (0001ms, 33300ms total)
T5AE8 7878:591 JLINK_WriteU32(0xE000EDFC, 0x01000000) -- CPU_WriteMem(4 bytes @ 0xE000EDFC)  returns 0 (0001ms, 33301ms total)
T5AE8 7878:620 JLINK_GetHWStatus(...)  returns 0x00 (0001ms, 33302ms total)
T5AE8 7878:643 JLINK_GetNumBPUnits(Type = 0xFFFFFF00)  returns 0x04 (0000ms, 33302ms total)
T5AE8 7878:643 JLINK_GetNumBPUnits(Type = 0xF0)  returns 0x2000 (0000ms, 33302ms total)
T5AE8 7878:643 JLINK_GetNumWPUnits()  returns 0x02 (0000ms, 33302ms total)
T5AE8 7878:664 JLINK_GetSpeed()  returns 0xFA0 (0000ms, 33302ms total)
T5AE8 7878:678 JLINK_ReadMemU32(0xE000E004, 0x0001 Items, ...) -- CPU_ReadMem(4 bytes @ 0xE000E004) - Data: 00 00 00 00  returns 1 (0001ms, 33303ms total)
T5AE8 7878:679 JLINK_Halt()  returns 0x00 (0000ms, 33303ms total)
T5AE8 7878:679 JLINK_IsHalted()  returns TRUE (0000ms, 33303ms total)
T5AE8 7878:685 JLINK_WriteMem(0x20000000, 0x0218 Bytes, ...) - Data: 00 BE 0A E0 0D 78 2D 06 68 40 08 24 40 00 00 D3 ... -- CPU_WriteMem(536 bytes @ 0x20000000)  returns 0x218 (0004ms, 33307ms total)
T5AE8 7878:689 JLINK_WriteReg(R0, 0x00000000)  returns 0x00 (0000ms, 33307ms total)
T5AE8 7878:689 JLINK_WriteReg(R1, 0x00B71B00)  returns 0x00 (0000ms, 33307ms total)
T5AE8 7878:689 JLINK_WriteReg(R2, 0x00000001)  returns 0x00 (0000ms, 33307ms total)
T5AE8 7878:689 JLINK_WriteReg(R3, 0x00000000)  returns 0x00 (0000ms, 33307ms total)
T5AE8 7878:690 JLINK_WriteReg(R4, 0x00000000)  returns 0x00 (0000ms, 33308ms total)
T5AE8 7878:690 JLINK_WriteReg(R5, 0x00000000)  returns 0x00 (0000ms, 33308ms total)
T5AE8 7878:690 JLINK_WriteReg(R6, 0x00000000)  returns 0x00 (0000ms, 33308ms total)
T5AE8 7878:690 JLINK_WriteReg(R7, 0x00000000)  returns 0x00 (0000ms, 33308ms total)
T5AE8 7878:690 JLINK_WriteReg(R8, 0x00000000)  returns 0x00 (0000ms, 33308ms total)
T5AE8 7878:690 JLINK_WriteReg(R9, 0x20000214)  returns 0x00 (0000ms, 33308ms total)
T5AE8 7878:690 JLINK_WriteReg(R10, 0x00000000)  returns 0x00 (0000ms, 33308ms total)
T5AE8 7878:690 JLINK_WriteReg(R11, 0x00000000)  returns 0x00 (0000ms, 33308ms total)
T5AE8 7878:690 JLINK_WriteReg(R12, 0x00000000)  returns 0x00 (0000ms, 33308ms total)
T5AE8 7878:690 JLINK_WriteReg(R13 (SP), 0x20001000)  returns 0x00 (0000ms, 33308ms total)
T5AE8 7878:690 JLINK_WriteReg(R14, 0x20000001)  returns 0x00 (0000ms, 33308ms total)
T5AE8 7878:690 JLINK_WriteReg(R15 (PC), 0x20000040)  returns 0x00 (0000ms, 33308ms total)
T5AE8 7878:690 JLINK_WriteReg(XPSR, 0x01000000)  returns 0x00 (0000ms, 33308ms total)
T5AE8 7878:690 JLINK_WriteReg(MSP, 0x20001000)  returns 0x00 (0000ms, 33308ms total)
T5AE8 7878:690 JLINK_WriteReg(PSP, 0x20001000)  returns 0x00 (0000ms, 33308ms total)
T5AE8 7878:690 JLINK_WriteReg(CFBP, 0x00000000)  returns 0x00 (0000ms, 33308ms total)
T5AE8 7878:690 JLINK_SetBPEx(Addr = 0x20000000, Type = 0xFFFFFFF2) -- CPU_ReadMem(4 bytes @ 0x20000000) -- CPU_WriteMem(4 bytes @ 0x20000000) -- CPU_ReadMem(4 bytes @ 0x20000000) -- CPU_WriteMem(4 bytes @ 0x20000000) -- CPU_ReadMem(2 bytes @ 0x20000000)  returns 0x00000001 (0005ms, 33313ms total)
T5AE8 7878:695 JLINK_Go() -- CPU_WriteMem(2 bytes @ 0x20000000) -- CPU_ReadMem(4 bytes @ 0xE0001000) -- CPU_WriteMem(4 bytes @ 0xE0001000) -- CPU_WriteMem(4 bytes @ 0xE0002008) -- CPU_WriteMem(4 bytes @ 0xE000200C) -- CPU_WriteMem(4 bytes @ 0xE0002010) -- CPU_WriteMem(4 bytes @ 0xE0002014) -- CPU_WriteMem(4 bytes @ 0xE0001004) (0008ms, 33321ms total)
T5AE8 7878:703 JLINK_IsHalted() -- CPU_ReadMem(2 bytes @ 0x20000000)  returns TRUE (0004ms, 33325ms total)
T5AE8 7878:707 JLINK_ReadReg(R15 (PC))  returns 0x20000000 (0000ms, 33321ms total)
T5AE8 7878:707 JLINK_ClrBPEx(BPHandle = 0x00000001)  returns 0x00 (0000ms, 33321ms total)
T5AE8 7878:707 JLINK_ReadReg(R0)  returns 0x00000000 (0000ms, 33321ms total)
T5AE8 7878:707 JLINK_WriteReg(R0, 0x00000000)  returns 0x00 (0000ms, 33321ms total)
T5AE8 7878:707 JLINK_WriteReg(R1, 0x00B71B00)  returns 0x00 (0000ms, 33321ms total)
T5AE8 7878:707 JLINK_WriteReg(R2, 0x00000001)  returns 0x00 (0000ms, 33321ms total)
T5AE8 7878:707 JLINK_WriteReg(R3, 0x00000000)  returns 0x00 (0000ms, 33321ms total)
T5AE8 7878:707 JLINK_WriteReg(R4, 0x00000000)  returns 0x00 (0000ms, 33321ms total)
T5AE8 7878:707 JLINK_WriteReg(R5, 0x00000000)  returns 0x00 (0000ms, 33321ms total)
T5AE8 7878:707 JLINK_WriteReg(R6, 0x00000000)  returns 0x00 (0000ms, 33321ms total)
T5AE8 7878:708 JLINK_WriteReg(R7, 0x00000000)  returns 0x00 (0000ms, 33321ms total)
T5AE8 7878:708 JLINK_WriteReg(R8, 0x00000000)  returns 0x00 (0000ms, 33321ms total)
T5AE8 7878:708 JLINK_WriteReg(R9, 0x20000214)  returns 0x00 (0000ms, 33321ms total)
T5AE8 7878:708 JLINK_WriteReg(R10, 0x00000000)  returns 0x00 (0000ms, 33321ms total)
T5AE8 7878:708 JLINK_WriteReg(R11, 0x00000000)  returns 0x00 (0000ms, 33321ms total)
T5AE8 7878:708 JLINK_WriteReg(R12, 0x00000000)  returns 0x00 (0000ms, 33321ms total)
T5AE8 7878:708 JLINK_WriteReg(R13 (SP), 0x20001000)  returns 0x00 (0000ms, 33321ms total)
T5AE8 7878:708 JLINK_WriteReg(R14, 0x20000001)  returns 0x00 (0000ms, 33321ms total)
T5AE8 7878:708 JLINK_WriteReg(R15 (PC), 0x20000116)  returns 0x00 (0000ms, 33321ms total)
T5AE8 7878:708 JLINK_WriteReg(XPSR, 0x01000000)  returns 0x00 (0000ms, 33321ms total)
T5AE8 7878:708 JLINK_WriteReg(MSP, 0x20001000)  returns 0x00 (0000ms, 33321ms total)
T5AE8 7878:708 JLINK_WriteReg(PSP, 0x20001000)  returns 0x00 (0000ms, 33321ms total)
T5AE8 7878:708 JLINK_WriteReg(CFBP, 0x00000000)  returns 0x00 (0000ms, 33321ms total)
T5AE8 7878:708 JLINK_SetBPEx(Addr = 0x20000000, Type = 0xFFFFFFF2)  returns 0x00000002 (0000ms, 33321ms total)
T5AE8 7878:708 JLINK_Go() -- CPU_ReadMem(4 bytes @ 0xE0001000) -- CPU_WriteMem(4 bytes @ 0xE0001000) (0006ms, 33327ms total)
T5AE8 7878:714 JLINK_IsHalted()  returns FALSE (0000ms, 33327ms total)
T5AE8 7878:816 JLINK_IsHalted() -- CPU_ReadMem(2 bytes @ 0x20000000)  returns TRUE (0004ms, 33331ms total)
T5AE8 7878:820 JLINK_ReadReg(R15 (PC))  returns 0x20000000 (0000ms, 33327ms total)
T5AE8 7878:820 JLINK_ClrBPEx(BPHandle = 0x00000002)  returns 0x00 (0000ms, 33327ms total)
T5AE8 7878:820 JLINK_ReadReg(R0)  returns 0x00000000 (0000ms, 33327ms total)
T5AE8 7878:873 JLINK_WriteReg(R0, 0x00000001)  returns 0x00 (0000ms, 33327ms total)
T5AE8 7878:873 JLINK_WriteReg(R1, 0x00B71B00)  returns 0x00 (0000ms, 33327ms total)
T5AE8 7878:874 JLINK_WriteReg(R2, 0x00000001)  returns 0x00 (0000ms, 33327ms total)
T5AE8 7878:874 JLINK_WriteReg(R3, 0x00000000)  returns 0x00 (0000ms, 33327ms total)
T5AE8 7878:874 JLINK_WriteReg(R4, 0x00000000)  returns 0x00 (0000ms, 33327ms total)
T5AE8 7878:874 JLINK_WriteReg(R5, 0x00000000)  returns 0x00 (0000ms, 33327ms total)
T5AE8 7878:874 JLINK_WriteReg(R6, 0x00000000)  returns 0x00 (0000ms, 33327ms total)
T5AE8 7878:874 JLINK_WriteReg(R7, 0x00000000)  returns 0x00 (0000ms, 33327ms total)
T5AE8 7878:874 JLINK_WriteReg(R8, 0x00000000)  returns 0x00 (0000ms, 33327ms total)
T5AE8 7878:874 JLINK_WriteReg(R9, 0x20000214)  returns 0x00 (0000ms, 33327ms total)
T5AE8 7878:874 JLINK_WriteReg(R10, 0x00000000)  returns 0x00 (0000ms, 33327ms total)
T5AE8 7878:874 JLINK_WriteReg(R11, 0x00000000)  returns 0x00 (0000ms, 33327ms total)
T5AE8 7878:874 JLINK_WriteReg(R12, 0x00000000)  returns 0x00 (0000ms, 33327ms total)
T5AE8 7878:874 JLINK_WriteReg(R13 (SP), 0x20001000)  returns 0x00 (0000ms, 33327ms total)
T5AE8 7878:874 JLINK_WriteReg(R14, 0x20000001)  returns 0x00 (0000ms, 33327ms total)
T5AE8 7878:874 JLINK_WriteReg(R15 (PC), 0x20000112)  returns 0x00 (0000ms, 33327ms total)
T5AE8 7878:874 JLINK_WriteReg(XPSR, 0x01000000)  returns 0x00 (0000ms, 33327ms total)
T5AE8 7878:874 JLINK_WriteReg(MSP, 0x20001000)  returns 0x00 (0000ms, 33327ms total)
T5AE8 7878:874 JLINK_WriteReg(PSP, 0x20001000)  returns 0x00 (0001ms, 33328ms total)
T5AE8 7878:875 JLINK_WriteReg(CFBP, 0x00000000)  returns 0x00 (0000ms, 33328ms total)
T5AE8 7878:875 JLINK_SetBPEx(Addr = 0x20000000, Type = 0xFFFFFFF2)  returns 0x00000003 (0000ms, 33328ms total)
T5AE8 7878:875 JLINK_Go() -- CPU_ReadMem(4 bytes @ 0xE0001000) -- CPU_WriteMem(4 bytes @ 0xE0001000) (0005ms, 33333ms total)
T5AE8 7878:880 JLINK_IsHalted() -- CPU_ReadMem(2 bytes @ 0x20000000)  returns TRUE (0004ms, 33337ms total)
T5AE8 7878:884 JLINK_ReadReg(R15 (PC))  returns 0x20000000 (0000ms, 33333ms total)
T5AE8 7878:884 JLINK_ClrBPEx(BPHandle = 0x00000003)  returns 0x00 (0000ms, 33333ms total)
T5AE8 7878:884 JLINK_ReadReg(R0)  returns 0x00000000 (0000ms, 33333ms total)
T5AE8 7878:898 JLINK_WriteMem(0x20000000, 0x0218 Bytes, ...) - Data: 00 BE 0A E0 0D 78 2D 06 68 40 08 24 40 00 00 D3 ... -- CPU_WriteMem(536 bytes @ 0x20000000)  returns 0x218 (0003ms, 33336ms total)
T5AE8 7878:902 JLINK_WriteReg(R0, 0x00000000)  returns 0x00 (0000ms, 33337ms total)
T5AE8 7878:902 JLINK_WriteReg(R1, 0x00B71B00)  returns 0x00 (0000ms, 33337ms total)
T5AE8 7878:902 JLINK_WriteReg(R2, 0x00000002)  returns 0x00 (0000ms, 33337ms total)
T5AE8 7878:902 JLINK_WriteReg(R3, 0x00000000)  returns 0x00 (0000ms, 33337ms total)
T5AE8 7878:902 JLINK_WriteReg(R4, 0x00000000)  returns 0x00 (0000ms, 33337ms total)
T5AE8 7878:902 JLINK_WriteReg(R5, 0x00000000)  returns 0x00 (0000ms, 33337ms total)
T5AE8 7878:902 JLINK_WriteReg(R6, 0x00000000)  returns 0x00 (0000ms, 33337ms total)
T5AE8 7878:902 JLINK_WriteReg(R7, 0x00000000)  returns 0x00 (0000ms, 33337ms total)
T5AE8 7878:902 JLINK_WriteReg(R8, 0x00000000)  returns 0x00 (0000ms, 33337ms total)
T5AE8 7878:902 JLINK_WriteReg(R9, 0x20000214)  returns 0x00 (0000ms, 33337ms total)
T5AE8 7878:902 JLINK_WriteReg(R10, 0x00000000)  returns 0x00 (0000ms, 33337ms total)
T5AE8 7878:902 JLINK_WriteReg(R11, 0x00000000)  returns 0x00 (0000ms, 33337ms total)
T5AE8 7878:902 JLINK_WriteReg(R12, 0x00000000)  returns 0x00 (0000ms, 33337ms total)
T5AE8 7878:902 JLINK_WriteReg(R13 (SP), 0x20001000)  returns 0x00 (0000ms, 33337ms total)
T5AE8 7878:902 JLINK_WriteReg(R14, 0x20000001)  returns 0x00 (0000ms, 33337ms total)
T5AE8 7878:902 JLINK_WriteReg(R15 (PC), 0x20000040)  returns 0x00 (0000ms, 33337ms total)
T5AE8 7878:902 JLINK_WriteReg(XPSR, 0x01000000)  returns 0x00 (0000ms, 33337ms total)
T5AE8 7878:902 JLINK_WriteReg(MSP, 0x20001000)  returns 0x00 (0000ms, 33337ms total)
T5AE8 7878:902 JLINK_WriteReg(PSP, 0x20001000)  returns 0x00 (0000ms, 33337ms total)
T5AE8 7878:902 JLINK_WriteReg(CFBP, 0x00000000)  returns 0x00 (0000ms, 33337ms total)
T5AE8 7878:902 JLINK_SetBPEx(Addr = 0x20000000, Type = 0xFFFFFFF2) -- CPU_ReadMem(4 bytes @ 0x20000000) -- CPU_WriteMem(4 bytes @ 0x20000000) -- CPU_ReadMem(4 bytes @ 0x20000000) -- CPU_WriteMem(4 bytes @ 0x20000000) -- CPU_ReadMem(2 bytes @ 0x20000000)  returns 0x00000004 (0005ms, 33342ms total)
T5AE8 7878:907 JLINK_Go() -- CPU_WriteMem(2 bytes @ 0x20000000) -- CPU_ReadMem(4 bytes @ 0xE0001000) -- CPU_WriteMem(4 bytes @ 0xE0001000) (0006ms, 33348ms total)
T5AE8 7878:913 JLINK_IsHalted() -- CPU_ReadMem(2 bytes @ 0x20000000)  returns TRUE (0004ms, 33352ms total)
T5AE8 7878:917 JLINK_ReadReg(R15 (PC))  returns 0x20000000 (0001ms, 33349ms total)
T5AE8 7878:918 JLINK_ClrBPEx(BPHandle = 0x00000004)  returns 0x00 (0000ms, 33349ms total)
T5AE8 7878:918 JLINK_ReadReg(R0)  returns 0x00000000 (0000ms, 33349ms total)
T5AE8 7878:918 JLINK_WriteMem(0x20000218, 0x01E8 Bytes, ...) - Data: A8 08 00 20 81 01 00 00 9B 01 00 00 D9 26 00 00 ... -- CPU_WriteMem(488 bytes @ 0x20000218)  returns 0x1E8 (0003ms, 33352ms total)
T5AE8 7878:921 JLINK_WriteMem(0x20000400, 0x0018 Bytes, ...) - Data: EF 01 04 2A 29 D3 08 C8 10 C9 5E 1B 9E 43 12 1F ... -- CPU_WriteMem(24 bytes @ 0x20000400)  returns 0x18 (0001ms, 33353ms total)
T5AE8 7878:922 JLINK_WriteReg(R0, 0x00000000)  returns 0x00 (0000ms, 33353ms total)
T5AE8 7878:922 JLINK_WriteReg(R1, 0x00000200)  returns 0x00 (0001ms, 33354ms total)
T5AE8 7878:923 JLINK_WriteReg(R2, 0x20000218)  returns 0x00 (0000ms, 33354ms total)
T5AE8 7878:923 JLINK_WriteReg(R3, 0x00000000)  returns 0x00 (0000ms, 33354ms total)
T5AE8 7878:923 JLINK_WriteReg(R4, 0x00000000)  returns 0x00 (0000ms, 33354ms total)
T5AE8 7878:923 JLINK_WriteReg(R5, 0x00000000)  returns 0x00 (0000ms, 33354ms total)
T5AE8 7878:923 JLINK_WriteReg(R6, 0x00000000)  returns 0x00 (0000ms, 33354ms total)
T5AE8 7878:923 JLINK_WriteReg(R7, 0x00000000)  returns 0x00 (0000ms, 33354ms total)
T5AE8 7878:923 JLINK_WriteReg(R8, 0x00000000)  returns 0x00 (0000ms, 33354ms total)
T5AE8 7878:923 JLINK_WriteReg(R9, 0x20000214)  returns 0x00 (0000ms, 33354ms total)
T5AE8 7878:923 JLINK_WriteReg(R10, 0x00000000)  returns 0x00 (0000ms, 33354ms total)
T5AE8 7878:923 JLINK_WriteReg(R11, 0x00000000)  returns 0x00 (0000ms, 33354ms total)
T5AE8 7878:923 JLINK_WriteReg(R12, 0x00000000)  returns 0x00 (0000ms, 33354ms total)
T5AE8 7878:923 JLINK_WriteReg(R13 (SP), 0x20001000)  returns 0x00 (0000ms, 33354ms total)
T5AE8 7878:923 JLINK_WriteReg(R14, 0x20000001)  returns 0x00 (0000ms, 33354ms total)
T5AE8 7878:923 JLINK_WriteReg(R15 (PC), 0x20000182)  returns 0x00 (0000ms, 33354ms total)
T5AE8 7878:923 JLINK_WriteReg(XPSR, 0x01000000)  returns 0x00 (0000ms, 33354ms total)
T5AE8 7878:923 JLINK_WriteReg(MSP, 0x20001000)  returns 0x00 (0000ms, 33354ms total)
T5AE8 7878:923 JLINK_WriteReg(PSP, 0x20001000)  returns 0x00 (0000ms, 33354ms total)
T5AE8 7878:923 JLINK_WriteReg(CFBP, 0x00000000)  returns 0x00 (0000ms, 33354ms total)
T5AE8 7878:923 JLINK_SetBPEx(Addr = 0x20000000, Type = 0xFFFFFFF2)  returns 0x00000005 (0000ms, 33354ms total)
T5AE8 7878:923 JLINK_Go() -- CPU_ReadMem(4 bytes @ 0xE0001000) -- CPU_WriteMem(4 bytes @ 0xE0001000) (0005ms, 33359ms total)
T5AE8 7878:928 JLINK_IsHalted()  returns FALSE (0001ms, 33360ms total)
T5AE8 7878:938 JLINK_IsHalted()  returns FALSE (0000ms, 33359ms total)
T5AE8 7878:941 JLINK_IsHalted()  returns FALSE (0000ms, 33359ms total)
T5AE8 7878:943 JLINK_IsHalted()  returns FALSE (0001ms, 33360ms total)
T5AE8 7878:946 JLINK_IsHalted() -- CPU_ReadMem(2 bytes @ 0x20000000)  returns TRUE (0004ms, 33363ms total)
T5AE8 7878:950 JLINK_ReadReg(R15 (PC))  returns 0x20000000 (0000ms, 33359ms total)
T5AE8 7878:950 JLINK_ClrBPEx(BPHandle = 0x00000005)  returns 0x00 (0000ms, 33359ms total)
T5AE8 7878:950 JLINK_ReadReg(R0)  returns 0x00000000 (0000ms, 33359ms total)
T5AE8 7878:951 JLINK_WriteMem(0x20000218, 0x01E8 Bytes, ...) - Data: 40 1A 31 06 01 43 10 D1 98 B2 A1 B2 40 1A 31 04 ... -- CPU_WriteMem(488 bytes @ 0x20000218)  returns 0x1E8 (0003ms, 33362ms total)
T5AE8 7878:954 JLINK_WriteMem(0x20000400, 0x0018 Bytes, ...) - Data: 2D D3 03 0A 8B 42 12 D3 FC 22 89 01 12 BA 03 0A ... -- CPU_WriteMem(24 bytes @ 0x20000400)  returns 0x18 (0001ms, 33363ms total)
T5AE8 7878:955 JLINK_WriteReg(R0, 0x00000200)  returns 0x00 (0000ms, 33363ms total)
T5AE8 7878:955 JLINK_WriteReg(R1, 0x00000200)  returns 0x00 (0000ms, 33363ms total)
T5AE8 7878:955 JLINK_WriteReg(R2, 0x20000218)  returns 0x00 (0000ms, 33363ms total)
T5AE8 7878:955 JLINK_WriteReg(R3, 0x00000000)  returns 0x00 (0000ms, 33363ms total)
T5AE8 7878:955 JLINK_WriteReg(R4, 0x00000000)  returns 0x00 (0000ms, 33363ms total)
T5AE8 7878:955 JLINK_WriteReg(R5, 0x00000000)  returns 0x00 (0000ms, 33363ms total)
T5AE8 7878:955 JLINK_WriteReg(R6, 0x00000000)  returns 0x00 (0000ms, 33363ms total)
T5AE8 7878:955 JLINK_WriteReg(R7, 0x00000000)  returns 0x00 (0000ms, 33363ms total)
T5AE8 7878:955 JLINK_WriteReg(R8, 0x00000000)  returns 0x00 (0000ms, 33363ms total)
T5AE8 7878:955 JLINK_WriteReg(R9, 0x20000214)  returns 0x00 (0001ms, 33364ms total)
T5AE8 7878:956 JLINK_WriteReg(R10, 0x00000000)  returns 0x00 (0000ms, 33364ms total)
T5AE8 7878:956 JLINK_WriteReg(R11, 0x00000000)  returns 0x00 (0000ms, 33364ms total)
T5AE8 7878:956 JLINK_WriteReg(R12, 0x00000000)  returns 0x00 (0000ms, 33364ms total)
T5AE8 7878:956 JLINK_WriteReg(R13 (SP), 0x20001000)  returns 0x00 (0000ms, 33364ms total)
T5AE8 7878:956 JLINK_WriteReg(R14, 0x20000001)  returns 0x00 (0000ms, 33364ms total)
T5AE8 7878:956 JLINK_WriteReg(R15 (PC), 0x20000182)  returns 0x00 (0000ms, 33364ms total)
T5AE8 7878:956 JLINK_WriteReg(XPSR, 0x01000000)  returns 0x00 (0000ms, 33364ms total)
T5AE8 7878:956 JLINK_WriteReg(MSP, 0x20001000)  returns 0x00 (0000ms, 33364ms total)
T5AE8 7878:956 JLINK_WriteReg(PSP, 0x20001000)  returns 0x00 (0000ms, 33364ms total)
T5AE8 7878:956 JLINK_WriteReg(CFBP, 0x00000000)  returns 0x00 (0000ms, 33364ms total)
T5AE8 7878:956 JLINK_SetBPEx(Addr = 0x20000000, Type = 0xFFFFFFF2)  returns 0x00000006 (0000ms, 33364ms total)
T5AE8 7878:956 JLINK_Go() -- CPU_ReadMem(4 bytes @ 0xE0001000) -- CPU_WriteMem(4 bytes @ 0xE0001000) (0005ms, 33369ms total)
T5AE8 7878:961 JLINK_IsHalted()  returns FALSE (0001ms, 33370ms total)
T5AE8 7878:964 JLINK_IsHalted()  returns FALSE (0001ms, 33370ms total)
T5AE8 7878:967 JLINK_IsHalted()  returns FALSE (0000ms, 33369ms total)
T5AE8 7878:969 JLINK_IsHalted()  returns FALSE (0001ms, 33370ms total)
T5AE8 7878:972 JLINK_IsHalted()  returns FALSE (0000ms, 33369ms total)
T5AE8 7878:974 JLINK_IsHalted()  returns FALSE (0000ms, 33369ms total)
T5AE8 7878:976 JLINK_IsHalted()  returns FALSE (0001ms, 33370ms total)
T5AE8 7878:979 JLINK_IsHalted() -- CPU_ReadMem(2 bytes @ 0x20000000)  returns TRUE (0004ms, 33373ms total)
T5AE8 7878:983 JLINK_ReadReg(R15 (PC))  returns 0x20000000 (0000ms, 33369ms total)
T5AE8 7878:983 JLINK_ClrBPEx(BPHandle = 0x00000006)  returns 0x00 (0000ms, 33369ms total)
T5AE8 7878:983 JLINK_ReadReg(R0)  returns 0x00000000 (0000ms, 33369ms total)
T5AE8 7878:984 JLINK_WriteMem(0x20000218, 0x01E8 Bytes, ...) - Data: 8B 42 08 D3 89 01 92 11 8B 42 04 D3 89 01 3A D0 ... -- CPU_WriteMem(488 bytes @ 0x20000218)  returns 0x1E8 (0003ms, 33372ms total)
T5AE8 7878:987 JLINK_WriteMem(0x20000400, 0x0018 Bytes, ...) - Data: 00 20 0B 49 08 70 0B 48 00 78 64 28 04 DC 09 48 ... -- CPU_WriteMem(24 bytes @ 0x20000400)  returns 0x18 (0001ms, 33373ms total)
T5AE8 7878:988 JLINK_WriteReg(R0, 0x00000400)  returns 0x00 (0000ms, 33373ms total)
T5AE8 7878:988 JLINK_WriteReg(R1, 0x00000200)  returns 0x00 (0000ms, 33373ms total)
T5AE8 7878:988 JLINK_WriteReg(R2, 0x20000218)  returns 0x00 (0000ms, 33373ms total)
T5AE8 7878:988 JLINK_WriteReg(R3, 0x00000000)  returns 0x00 (0000ms, 33373ms total)
T5AE8 7878:988 JLINK_WriteReg(R4, 0x00000000)  returns 0x00 (0000ms, 33373ms total)
T5AE8 7878:988 JLINK_WriteReg(R5, 0x00000000)  returns 0x00 (0000ms, 33373ms total)
T5AE8 7878:988 JLINK_WriteReg(R6, 0x00000000)  returns 0x00 (0000ms, 33373ms total)
T5AE8 7878:988 JLINK_WriteReg(R7, 0x00000000)  returns 0x00 (0000ms, 33373ms total)
T5AE8 7878:988 JLINK_WriteReg(R8, 0x00000000)  returns 0x00 (0000ms, 33373ms total)
T5AE8 7878:989 JLINK_WriteReg(R9, 0x20000214)  returns 0x00 (0000ms, 33373ms total)
T5AE8 7878:989 JLINK_WriteReg(R10, 0x00000000)  returns 0x00 (0000ms, 33373ms total)
T5AE8 7878:989 JLINK_WriteReg(R11, 0x00000000)  returns 0x00 (0000ms, 33373ms total)
T5AE8 7878:989 JLINK_WriteReg(R12, 0x00000000)  returns 0x00 (0000ms, 33373ms total)
T5AE8 7878:989 JLINK_WriteReg(R13 (SP), 0x20001000)  returns 0x00 (0000ms, 33373ms total)
T5AE8 7878:989 JLINK_WriteReg(R14, 0x20000001)  returns 0x00 (0000ms, 33373ms total)
T5AE8 7878:989 JLINK_WriteReg(R15 (PC), 0x20000182)  returns 0x00 (0000ms, 33373ms total)
T5AE8 7878:989 JLINK_WriteReg(XPSR, 0x01000000)  returns 0x00 (0000ms, 33373ms total)
T5AE8 7878:989 JLINK_WriteReg(MSP, 0x20001000)  returns 0x00 (0000ms, 33373ms total)
T5AE8 7878:989 JLINK_WriteReg(PSP, 0x20001000)  returns 0x00 (0000ms, 33373ms total)
T5AE8 7878:989 JLINK_WriteReg(CFBP, 0x00000000)  returns 0x00 (0000ms, 33373ms total)
T5AE8 7878:989 JLINK_SetBPEx(Addr = 0x20000000, Type = 0xFFFFFFF2)  returns 0x00000007 (0000ms, 33373ms total)
T5AE8 7878:989 JLINK_Go() -- CPU_ReadMem(4 bytes @ 0xE0001000) -- CPU_WriteMem(4 bytes @ 0xE0001000) (0005ms, 33378ms total)
T5AE8 7878:994 JLINK_IsHalted()  returns FALSE (0001ms, 33379ms total)
T5AE8 7878:999 JLINK_IsHalted()  returns FALSE (0001ms, 33379ms total)
T5AE8 7879:002 JLINK_IsHalted()  returns FALSE (0000ms, 33378ms total)
T5AE8 7879:005 JLINK_IsHalted()  returns FALSE (0000ms, 33378ms total)
T5AE8 7879:007 JLINK_IsHalted()  returns FALSE (0000ms, 33378ms total)
T5AE8 7879:009 JLINK_IsHalted()  returns FALSE (0000ms, 33378ms total)
T5AE8 7879:013 JLINK_IsHalted() -- CPU_ReadMem(2 bytes @ 0x20000000)  returns TRUE (0004ms, 33382ms total)
T5AE8 7879:017 JLINK_ReadReg(R15 (PC))  returns 0x20000000 (0000ms, 33382ms total)
T5AE8 7879:017 JLINK_ClrBPEx(BPHandle = 0x00000007)  returns 0x00 (0000ms, 33382ms total)
T5AE8 7879:017 JLINK_ReadReg(R0)  returns 0x00000000 (0000ms, 33382ms total)
T5AE8 7879:018 JLINK_WriteMem(0x20000218, 0x01E8 Bytes, ...) - Data: 07 48 00 78 40 1C 06 49 08 70 10 BD 3C 01 00 20 ... -- CPU_WriteMem(488 bytes @ 0x20000218)  returns 0x1E8 (0003ms, 33385ms total)
T5AE8 7879:021 JLINK_WriteMem(0x20000400, 0x0018 Bytes, ...) - Data: 13 48 00 6B C0 06 C0 0F 00 28 0C D0 11 48 40 68 ... -- CPU_WriteMem(24 bytes @ 0x20000400)  returns 0x18 (0001ms, 33386ms total)
T5AE8 7879:022 JLINK_WriteReg(R0, 0x00000600)  returns 0x00 (0000ms, 33386ms total)
T5AE8 7879:022 JLINK_WriteReg(R1, 0x00000200)  returns 0x00 (0000ms, 33386ms total)
T5AE8 7879:022 JLINK_WriteReg(R2, 0x20000218)  returns 0x00 (0000ms, 33386ms total)
T5AE8 7879:022 JLINK_WriteReg(R3, 0x00000000)  returns 0x00 (0000ms, 33386ms total)
T5AE8 7879:022 JLINK_WriteReg(R4, 0x00000000)  returns 0x00 (0000ms, 33386ms total)
T5AE8 7879:022 JLINK_WriteReg(R5, 0x00000000)  returns 0x00 (0000ms, 33386ms total)
T5AE8 7879:022 JLINK_WriteReg(R6, 0x00000000)  returns 0x00 (0000ms, 33386ms total)
T5AE8 7879:022 JLINK_WriteReg(R7, 0x00000000)  returns 0x00 (0000ms, 33386ms total)
T5AE8 7879:022 JLINK_WriteReg(R8, 0x00000000)  returns 0x00 (0001ms, 33387ms total)
T5AE8 7879:023 JLINK_WriteReg(R9, 0x20000214)  returns 0x00 (0000ms, 33387ms total)
T5AE8 7879:023 JLINK_WriteReg(R10, 0x00000000)  returns 0x00 (0000ms, 33387ms total)
T5AE8 7879:023 JLINK_WriteReg(R11, 0x00000000)  returns 0x00 (0000ms, 33387ms total)
T5AE8 7879:023 JLINK_WriteReg(R12, 0x00000000)  returns 0x00 (0000ms, 33387ms total)
T5AE8 7879:023 JLINK_WriteReg(R13 (SP), 0x20001000)  returns 0x00 (0000ms, 33387ms total)
T5AE8 7879:023 JLINK_WriteReg(R14, 0x20000001)  returns 0x00 (0000ms, 33387ms total)
T5AE8 7879:023 JLINK_WriteReg(R15 (PC), 0x20000182)  returns 0x00 (0000ms, 33387ms total)
T5AE8 7879:023 JLINK_WriteReg(XPSR, 0x01000000)  returns 0x00 (0000ms, 33387ms total)
T5AE8 7879:023 JLINK_WriteReg(MSP, 0x20001000)  returns 0x00 (0000ms, 33387ms total)
T5AE8 7879:023 JLINK_WriteReg(PSP, 0x20001000)  returns 0x00 (0000ms, 33387ms total)
T5AE8 7879:023 JLINK_WriteReg(CFBP, 0x00000000)  returns 0x00 (0000ms, 33387ms total)
T5AE8 7879:023 JLINK_SetBPEx(Addr = 0x20000000, Type = 0xFFFFFFF2)  returns 0x00000008 (0000ms, 33387ms total)
T5AE8 7879:023 JLINK_Go() -- CPU_ReadMem(4 bytes @ 0xE0001000) -- CPU_WriteMem(4 bytes @ 0xE0001000) (0005ms, 33392ms total)
T5AE8 7879:028 JLINK_IsHalted()  returns FALSE (0001ms, 33393ms total)
T5AE8 7879:031 JLINK_IsHalted()  returns FALSE (0000ms, 33392ms total)
T5AE8 7879:034 JLINK_IsHalted()  returns FALSE (0000ms, 33392ms total)
T5AE8 7879:036 JLINK_IsHalted()  returns FALSE (0000ms, 33392ms total)
T5AE8 7879:038 JLINK_IsHalted()  returns FALSE (0000ms, 33392ms total)
T5AE8 7879:040 JLINK_IsHalted()  returns FALSE (0000ms, 33392ms total)
T5AE8 7879:045 JLINK_IsHalted() -- CPU_ReadMem(2 bytes @ 0x20000000)  returns TRUE (0004ms, 33396ms total)
T5AE8 7879:049 JLINK_ReadReg(R15 (PC))  returns 0x20000000 (0000ms, 33392ms total)
T5AE8 7879:049 JLINK_ClrBPEx(BPHandle = 0x00000008)  returns 0x00 (0000ms, 33392ms total)
T5AE8 7879:049 JLINK_ReadReg(R0)  returns 0x00000000 (0000ms, 33392ms total)
T5AE8 7879:050 JLINK_WriteMem(0x20000218, 0x01E8 Bytes, ...) - Data: 80 47 0D 48 40 6B 10 21 88 43 0B 49 48 63 0A 48 ... -- CPU_WriteMem(488 bytes @ 0x20000218)  returns 0x1E8 (0003ms, 33395ms total)
T5AE8 7879:053 JLINK_WriteMem(0x20000400, 0x0018 Bytes, ...) - Data: 5B FC 3A E0 3A E0 00 21 20 20 02 F0 0C FF 01 21 ... -- CPU_WriteMem(24 bytes @ 0x20000400)  returns 0x18 (0001ms, 33396ms total)
T5AE8 7879:054 JLINK_WriteReg(R0, 0x00000800)  returns 0x00 (0000ms, 33396ms total)
T5AE8 7879:054 JLINK_WriteReg(R1, 0x00000200)  returns 0x00 (0000ms, 33396ms total)
T5AE8 7879:054 JLINK_WriteReg(R2, 0x20000218)  returns 0x00 (0000ms, 33396ms total)
T5AE8 7879:054 JLINK_WriteReg(R3, 0x00000000)  returns 0x00 (0000ms, 33396ms total)
T5AE8 7879:054 JLINK_WriteReg(R4, 0x00000000)  returns 0x00 (0000ms, 33396ms total)
T5AE8 7879:054 JLINK_WriteReg(R5, 0x00000000)  returns 0x00 (0000ms, 33396ms total)
T5AE8 7879:054 JLINK_WriteReg(R6, 0x00000000)  returns 0x00 (0000ms, 33396ms total)
T5AE8 7879:054 JLINK_WriteReg(R7, 0x00000000)  returns 0x00 (0001ms, 33397ms total)
T5AE8 7879:055 JLINK_WriteReg(R8, 0x00000000)  returns 0x00 (0000ms, 33397ms total)
T5AE8 7879:055 JLINK_WriteReg(R9, 0x20000214)  returns 0x00 (0000ms, 33397ms total)
T5AE8 7879:055 JLINK_WriteReg(R10, 0x00000000)  returns 0x00 (0000ms, 33397ms total)
T5AE8 7879:055 JLINK_WriteReg(R11, 0x00000000)  returns 0x00 (0000ms, 33397ms total)
T5AE8 7879:055 JLINK_WriteReg(R12, 0x00000000)  returns 0x00 (0000ms, 33397ms total)
T5AE8 7879:055 JLINK_WriteReg(R13 (SP), 0x20001000)  returns 0x00 (0000ms, 33397ms total)
T5AE8 7879:055 JLINK_WriteReg(R14, 0x20000001)  returns 0x00 (0000ms, 33397ms total)
T5AE8 7879:055 JLINK_WriteReg(R15 (PC), 0x20000182)  returns 0x00 (0000ms, 33397ms total)
T5AE8 7879:055 JLINK_WriteReg(XPSR, 0x01000000)  returns 0x00 (0000ms, 33397ms total)
T5AE8 7879:055 JLINK_WriteReg(MSP, 0x20001000)  returns 0x00 (0000ms, 33397ms total)
T5AE8 7879:055 JLINK_WriteReg(PSP, 0x20001000)  returns 0x00 (0000ms, 33397ms total)
T5AE8 7879:055 JLINK_WriteReg(CFBP, 0x00000000)  returns 0x00 (0000ms, 33397ms total)
T5AE8 7879:055 JLINK_SetBPEx(Addr = 0x20000000, Type = 0xFFFFFFF2)  returns 0x00000009 (0000ms, 33397ms total)
T5AE8 7879:055 JLINK_Go() -- CPU_ReadMem(4 bytes @ 0xE0001000) -- CPU_WriteMem(4 bytes @ 0xE0001000) (0005ms, 33402ms total)
T5AE8 7879:060 JLINK_IsHalted()  returns FALSE (0001ms, 33403ms total)
T5AE8 7879:063 JLINK_IsHalted()  returns FALSE (0000ms, 33402ms total)
T5AE8 7879:068 JLINK_IsHalted()  returns FALSE (0001ms, 33403ms total)
T5AE8 7879:071 JLINK_IsHalted()  returns FALSE (0000ms, 33402ms total)
T5AE8 7879:073 JLINK_IsHalted()  returns FALSE (0000ms, 33402ms total)
T5AE8 7879:075 JLINK_IsHalted()  returns FALSE (0000ms, 33402ms total)
T5AE8 7879:077 JLINK_IsHalted() -- CPU_ReadMem(2 bytes @ 0x20000000)  returns TRUE (0004ms, 33406ms total)
T5AE8 7879:081 JLINK_ReadReg(R15 (PC))  returns 0x20000000 (0000ms, 33402ms total)
T5AE8 7879:081 JLINK_ClrBPEx(BPHandle = 0x00000009)  returns 0x00 (0000ms, 33402ms total)
T5AE8 7879:081 JLINK_ReadReg(R0)  returns 0x00000000 (0000ms, 33402ms total)
T5AE8 7879:082 JLINK_WriteMem(0x20000218, 0x01E8 Bytes, ...) - Data: 00 78 40 1C 1A 49 08 70 02 20 18 49 08 70 1D 48 ... -- CPU_WriteMem(488 bytes @ 0x20000218)  returns 0x1E8 (0003ms, 33405ms total)
T5AE8 7879:085 JLINK_WriteMem(0x20000400, 0x0018 Bytes, ...) - Data: 80 4B DB 68 03 24 24 03 A3 43 0C 78 24 03 03 25 ... -- CPU_WriteMem(24 bytes @ 0x20000400)  returns 0x18 (0001ms, 33406ms total)
T5AE8 7879:086 JLINK_WriteReg(R0, 0x00000A00)  returns 0x00 (0000ms, 33406ms total)
T5AE8 7879:086 JLINK_WriteReg(R1, 0x00000200)  returns 0x00 (0000ms, 33406ms total)
T5AE8 7879:087 JLINK_WriteReg(R2, 0x20000218)  returns 0x00 (0000ms, 33407ms total)
T5AE8 7879:087 JLINK_WriteReg(R3, 0x00000000)  returns 0x00 (0000ms, 33407ms total)
T5AE8 7879:087 JLINK_WriteReg(R4, 0x00000000)  returns 0x00 (0000ms, 33407ms total)
T5AE8 7879:087 JLINK_WriteReg(R5, 0x00000000)  returns 0x00 (0000ms, 33407ms total)
T5AE8 7879:087 JLINK_WriteReg(R6, 0x00000000)  returns 0x00 (0000ms, 33407ms total)
T5AE8 7879:087 JLINK_WriteReg(R7, 0x00000000)  returns 0x00 (0000ms, 33407ms total)
T5AE8 7879:087 JLINK_WriteReg(R8, 0x00000000)  returns 0x00 (0000ms, 33407ms total)
T5AE8 7879:087 JLINK_WriteReg(R9, 0x20000214)  returns 0x00 (0000ms, 33407ms total)
T5AE8 7879:087 JLINK_WriteReg(R10, 0x00000000)  returns 0x00 (0000ms, 33407ms total)
T5AE8 7879:087 JLINK_WriteReg(R11, 0x00000000)  returns 0x00 (0000ms, 33407ms total)
T5AE8 7879:087 JLINK_WriteReg(R12, 0x00000000)  returns 0x00 (0000ms, 33407ms total)
T5AE8 7879:087 JLINK_WriteReg(R13 (SP), 0x20001000)  returns 0x00 (0000ms, 33407ms total)
T5AE8 7879:087 JLINK_WriteReg(R14, 0x20000001)  returns 0x00 (0000ms, 33407ms total)
T5AE8 7879:087 JLINK_WriteReg(R15 (PC), 0x20000182)  returns 0x00 (0000ms, 33407ms total)
T5AE8 7879:087 JLINK_WriteReg(XPSR, 0x01000000)  returns 0x00 (0000ms, 33407ms total)
T5AE8 7879:087 JLINK_WriteReg(MSP, 0x20001000)  returns 0x00 (0000ms, 33407ms total)
T5AE8 7879:087 JLINK_WriteReg(PSP, 0x20001000)  returns 0x00 (0000ms, 33407ms total)
T5AE8 7879:087 JLINK_WriteReg(CFBP, 0x00000000)  returns 0x00 (0000ms, 33407ms total)
T5AE8 7879:087 JLINK_SetBPEx(Addr = 0x20000000, Type = 0xFFFFFFF2)  returns 0x0000000A (0000ms, 33407ms total)
T5AE8 7879:087 JLINK_Go() -- CPU_ReadMem(4 bytes @ 0xE0001000) -- CPU_WriteMem(4 bytes @ 0xE0001000) (0005ms, 33412ms total)
T5AE8 7879:092 JLINK_IsHalted()  returns FALSE (0001ms, 33413ms total)
T5AE8 7879:100 JLINK_IsHalted()  returns FALSE (0001ms, 33413ms total)
T5AE8 7879:105 JLINK_IsHalted()  returns FALSE (0000ms, 33412ms total)
T5AE8 7879:107 JLINK_IsHalted()  returns FALSE (0000ms, 33412ms total)
T5AE8 7879:109 JLINK_IsHalted() -- CPU_ReadMem(2 bytes @ 0x20000000)  returns TRUE (0004ms, 33416ms total)
T5AE8 7879:113 JLINK_ReadReg(R15 (PC))  returns 0x20000000 (0000ms, 33412ms total)
T5AE8 7879:113 JLINK_ClrBPEx(BPHandle = 0x0000000A)  returns 0x00 (0000ms, 33412ms total)
T5AE8 7879:113 JLINK_ReadReg(R0)  returns 0x00000000 (0000ms, 33412ms total)
T5AE8 7879:114 JLINK_WriteMem(0x20000218, 0x01E8 Bytes, ...) - Data: E3 60 23 46 DB 68 64 15 A3 43 4C 78 64 02 01 25 ... -- CPU_WriteMem(488 bytes @ 0x20000218)  returns 0x1E8 (0003ms, 33415ms total)
T5AE8 7879:117 JLINK_WriteMem(0x20000400, 0x0018 Bytes, ...) - Data: 00 BF 30 BD 00 0C 00 40 50 01 00 20 00 0D 00 40 ... -- CPU_WriteMem(24 bytes @ 0x20000400)  returns 0x18 (0001ms, 33416ms total)
T5AE8 7879:119 JLINK_WriteReg(R0, 0x00000C00)  returns 0x00 (0000ms, 33416ms total)
T5AE8 7879:119 JLINK_WriteReg(R1, 0x00000200)  returns 0x00 (0000ms, 33416ms total)
T5AE8 7879:119 JLINK_WriteReg(R2, 0x20000218)  returns 0x00 (0001ms, 33417ms total)
T5AE8 7879:120 JLINK_WriteReg(R3, 0x00000000)  returns 0x00 (0000ms, 33417ms total)
T5AE8 7879:120 JLINK_WriteReg(R4, 0x00000000)  returns 0x00 (0000ms, 33417ms total)
T5AE8 7879:120 JLINK_WriteReg(R5, 0x00000000)  returns 0x00 (0000ms, 33417ms total)
T5AE8 7879:120 JLINK_WriteReg(R6, 0x00000000)  returns 0x00 (0000ms, 33417ms total)
T5AE8 7879:120 JLINK_WriteReg(R7, 0x00000000)  returns 0x00 (0000ms, 33417ms total)
T5AE8 7879:120 JLINK_WriteReg(R8, 0x00000000)  returns 0x00 (0000ms, 33417ms total)
T5AE8 7879:120 JLINK_WriteReg(R9, 0x20000214)  returns 0x00 (0000ms, 33417ms total)
T5AE8 7879:120 JLINK_WriteReg(R10, 0x00000000)  returns 0x00 (0000ms, 33417ms total)
T5AE8 7879:120 JLINK_WriteReg(R11, 0x00000000)  returns 0x00 (0000ms, 33417ms total)
T5AE8 7879:120 JLINK_WriteReg(R12, 0x00000000)  returns 0x00 (0000ms, 33417ms total)
T5AE8 7879:120 JLINK_WriteReg(R13 (SP), 0x20001000)  returns 0x00 (0000ms, 33417ms total)
T5AE8 7879:120 JLINK_WriteReg(R14, 0x20000001)  returns 0x00 (0000ms, 33417ms total)
T5AE8 7879:120 JLINK_WriteReg(R15 (PC), 0x20000182)  returns 0x00 (0000ms, 33417ms total)
T5AE8 7879:120 JLINK_WriteReg(XPSR, 0x01000000)  returns 0x00 (0000ms, 33417ms total)
T5AE8 7879:120 JLINK_WriteReg(MSP, 0x20001000)  returns 0x00 (0000ms, 33417ms total)
T5AE8 7879:120 JLINK_WriteReg(PSP, 0x20001000)  returns 0x00 (0000ms, 33417ms total)
T5AE8 7879:120 JLINK_WriteReg(CFBP, 0x00000000)  returns 0x00 (0000ms, 33417ms total)
T5AE8 7879:120 JLINK_SetBPEx(Addr = 0x20000000, Type = 0xFFFFFFF2)  returns 0x0000000B (0000ms, 33417ms total)
T5AE8 7879:120 JLINK_Go() -- CPU_ReadMem(4 bytes @ 0xE0001000) -- CPU_WriteMem(4 bytes @ 0xE0001000) (0005ms, 33422ms total)
T5AE8 7879:125 JLINK_IsHalted()  returns FALSE (0001ms, 33423ms total)
T5AE8 7879:128 JLINK_IsHalted()  returns FALSE (0001ms, 33423ms total)
T5AE8 7879:131 JLINK_IsHalted()  returns FALSE (0001ms, 33423ms total)
T5AE8 7879:134 JLINK_IsHalted()  returns FALSE (0001ms, 33423ms total)
T5AE8 7879:137 JLINK_IsHalted()  returns FALSE (0000ms, 33422ms total)
T5AE8 7879:139 JLINK_IsHalted()  returns FALSE (0000ms, 33422ms total)
T5AE8 7879:141 JLINK_IsHalted()  returns FALSE (0000ms, 33422ms total)
T5AE8 7879:143 JLINK_IsHalted() -- CPU_ReadMem(2 bytes @ 0x20000000)  returns TRUE (0003ms, 33425ms total)
T5AE8 7879:146 JLINK_ReadReg(R15 (PC))  returns 0x20000000 (0000ms, 33422ms total)
T5AE8 7879:146 JLINK_ClrBPEx(BPHandle = 0x0000000B)  returns 0x00 (0000ms, 33422ms total)
T5AE8 7879:146 JLINK_ReadReg(R0)  returns 0x00000000 (0000ms, 33422ms total)
T5AE8 7879:147 JLINK_WriteMem(0x20000218, 0x01E8 Bytes, ...) - Data: 58 01 00 20 70 B5 0A 4D 0A 48 04 68 21 46 28 46 ... -- CPU_WriteMem(488 bytes @ 0x20000218)  returns 0x1E8 (0003ms, 33425ms total)
T5AE8 7879:150 JLINK_WriteMem(0x20000400, 0x0018 Bytes, ...) - Data: 15 48 00 78 01 28 11 D1 0A 48 00 78 00 28 0D D1 ... -- CPU_WriteMem(24 bytes @ 0x20000400)  returns 0x18 (0002ms, 33427ms total)
T5AE8 7879:152 JLINK_WriteReg(R0, 0x00000E00)  returns 0x00 (0000ms, 33427ms total)
T5AE8 7879:152 JLINK_WriteReg(R1, 0x00000200)  returns 0x00 (0000ms, 33427ms total)
T5AE8 7879:152 JLINK_WriteReg(R2, 0x20000218)  returns 0x00 (0000ms, 33427ms total)
T5AE8 7879:152 JLINK_WriteReg(R3, 0x00000000)  returns 0x00 (0000ms, 33427ms total)
T5AE8 7879:152 JLINK_WriteReg(R4, 0x00000000)  returns 0x00 (0000ms, 33427ms total)
T5AE8 7879:152 JLINK_WriteReg(R5, 0x00000000)  returns 0x00 (0000ms, 33427ms total)
T5AE8 7879:152 JLINK_WriteReg(R6, 0x00000000)  returns 0x00 (0000ms, 33427ms total)
T5AE8 7879:152 JLINK_WriteReg(R7, 0x00000000)  returns 0x00 (0000ms, 33427ms total)
T5AE8 7879:152 JLINK_WriteReg(R8, 0x00000000)  returns 0x00 (0000ms, 33427ms total)
T5AE8 7879:152 JLINK_WriteReg(R9, 0x20000214)  returns 0x00 (0000ms, 33427ms total)
T5AE8 7879:152 JLINK_WriteReg(R10, 0x00000000)  returns 0x00 (0000ms, 33427ms total)
T5AE8 7879:152 JLINK_WriteReg(R11, 0x00000000)  returns 0x00 (0000ms, 33427ms total)
T5AE8 7879:152 JLINK_WriteReg(R12, 0x00000000)  returns 0x00 (0000ms, 33427ms total)
T5AE8 7879:152 JLINK_WriteReg(R13 (SP), 0x20001000)  returns 0x00 (0000ms, 33427ms total)
T5AE8 7879:152 JLINK_WriteReg(R14, 0x20000001)  returns 0x00 (0000ms, 33427ms total)
T5AE8 7879:152 JLINK_WriteReg(R15 (PC), 0x20000182)  returns 0x00 (0000ms, 33427ms total)
T5AE8 7879:152 JLINK_WriteReg(XPSR, 0x01000000)  returns 0x00 (0000ms, 33427ms total)
T5AE8 7879:152 JLINK_WriteReg(MSP, 0x20001000)  returns 0x00 (0000ms, 33427ms total)
T5AE8 7879:152 JLINK_WriteReg(PSP, 0x20001000)  returns 0x00 (0000ms, 33427ms total)
T5AE8 7879:152 JLINK_WriteReg(CFBP, 0x00000000)  returns 0x00 (0000ms, 33427ms total)
T5AE8 7879:152 JLINK_SetBPEx(Addr = 0x20000000, Type = 0xFFFFFFF2)  returns 0x0000000C (0000ms, 33427ms total)
T5AE8 7879:153 JLINK_Go() -- CPU_ReadMem(4 bytes @ 0xE0001000) -- CPU_WriteMem(4 bytes @ 0xE0001000) (0004ms, 33431ms total)
T5AE8 7879:157 JLINK_IsHalted()  returns FALSE (0001ms, 33432ms total)
T5AE8 7879:160 JLINK_IsHalted()  returns FALSE (0001ms, 33432ms total)
T5AE8 7879:163 JLINK_IsHalted()  returns FALSE (0001ms, 33432ms total)
T5AE8 7879:166 JLINK_IsHalted()  returns FALSE (0000ms, 33431ms total)
T5AE8 7879:169 JLINK_IsHalted()  returns FALSE (0001ms, 33432ms total)
T5AE8 7879:172 JLINK_IsHalted()  returns FALSE (0001ms, 33432ms total)
T5AE8 7879:175 JLINK_IsHalted() -- CPU_ReadMem(2 bytes @ 0x20000000)  returns TRUE (0004ms, 33435ms total)
T5AE8 7879:179 JLINK_ReadReg(R15 (PC))  returns 0x20000000 (0000ms, 33431ms total)
T5AE8 7879:179 JLINK_ClrBPEx(BPHandle = 0x0000000C)  returns 0x00 (0000ms, 33431ms total)
T5AE8 7879:179 JLINK_ReadReg(R0)  returns 0x00000000 (0000ms, 33431ms total)
T5AE8 7879:180 JLINK_WriteMem(0x20000218, 0x01E8 Bytes, ...) - Data: 0F 49 08 70 0F 49 08 60 0D 21 80 20 01 F0 56 FB ... -- CPU_WriteMem(488 bytes @ 0x20000218)  returns 0x1E8 (0003ms, 33434ms total)
T5AE8 7879:183 JLINK_WriteMem(0x20000400, 0x0018 Bytes, ...) - Data: 00 28 0C D1 0D 21 80 20 01 F0 64 FA 01 20 14 49 ... -- CPU_WriteMem(24 bytes @ 0x20000400)  returns 0x18 (0001ms, 33435ms total)
T5AE8 7879:184 JLINK_WriteReg(R0, 0x00001000)  returns 0x00 (0000ms, 33435ms total)
T5AE8 7879:184 JLINK_WriteReg(R1, 0x00000200)  returns 0x00 (0000ms, 33435ms total)
T5AE8 7879:184 JLINK_WriteReg(R2, 0x20000218)  returns 0x00 (0000ms, 33435ms total)
T5AE8 7879:184 JLINK_WriteReg(R3, 0x00000000)  returns 0x00 (0000ms, 33435ms total)
T5AE8 7879:184 JLINK_WriteReg(R4, 0x00000000)  returns 0x00 (0000ms, 33435ms total)
T5AE8 7879:184 JLINK_WriteReg(R5, 0x00000000)  returns 0x00 (0000ms, 33435ms total)
T5AE8 7879:184 JLINK_WriteReg(R6, 0x00000000)  returns 0x00 (0001ms, 33436ms total)
T5AE8 7879:185 JLINK_WriteReg(R7, 0x00000000)  returns 0x00 (0000ms, 33436ms total)
T5AE8 7879:185 JLINK_WriteReg(R8, 0x00000000)  returns 0x00 (0000ms, 33436ms total)
T5AE8 7879:185 JLINK_WriteReg(R9, 0x20000214)  returns 0x00 (0000ms, 33436ms total)
T5AE8 7879:185 JLINK_WriteReg(R10, 0x00000000)  returns 0x00 (0000ms, 33436ms total)
T5AE8 7879:185 JLINK_WriteReg(R11, 0x00000000)  returns 0x00 (0000ms, 33436ms total)
T5AE8 7879:185 JLINK_WriteReg(R12, 0x00000000)  returns 0x00 (0000ms, 33436ms total)
T5AE8 7879:185 JLINK_WriteReg(R13 (SP), 0x20001000)  returns 0x00 (0000ms, 33436ms total)
T5AE8 7879:185 JLINK_WriteReg(R14, 0x20000001)  returns 0x00 (0000ms, 33436ms total)
T5AE8 7879:185 JLINK_WriteReg(R15 (PC), 0x20000182)  returns 0x00 (0000ms, 33436ms total)
T5AE8 7879:185 JLINK_WriteReg(XPSR, 0x01000000)  returns 0x00 (0000ms, 33436ms total)
T5AE8 7879:185 JLINK_WriteReg(MSP, 0x20001000)  returns 0x00 (0000ms, 33436ms total)
T5AE8 7879:185 JLINK_WriteReg(PSP, 0x20001000)  returns 0x00 (0000ms, 33436ms total)
T5AE8 7879:185 JLINK_WriteReg(CFBP, 0x00000000)  returns 0x00 (0000ms, 33436ms total)
T5AE8 7879:185 JLINK_SetBPEx(Addr = 0x20000000, Type = 0xFFFFFFF2)  returns 0x0000000D (0000ms, 33436ms total)
T5AE8 7879:185 JLINK_Go() -- CPU_ReadMem(4 bytes @ 0xE0001000) -- CPU_WriteMem(4 bytes @ 0xE0001000) (0005ms, 33441ms total)
T5AE8 7879:190 JLINK_IsHalted()  returns FALSE (0001ms, 33442ms total)
T5AE8 7879:193 JLINK_IsHalted()  returns FALSE (0001ms, 33442ms total)
T5AE8 7879:196 JLINK_IsHalted()  returns FALSE (0001ms, 33442ms total)
T5AE8 7879:201 JLINK_IsHalted()  returns FALSE (0001ms, 33442ms total)
T5AE8 7879:204 JLINK_IsHalted()  returns FALSE (0000ms, 33441ms total)
T5AE8 7879:206 JLINK_IsHalted()  returns FALSE (0001ms, 33442ms total)
T5AE8 7879:209 JLINK_IsHalted() -- CPU_ReadMem(2 bytes @ 0x20000000)  returns TRUE (0004ms, 33445ms total)
T5AE8 7879:213 JLINK_ReadReg(R15 (PC))  returns 0x20000000 (0000ms, 33441ms total)
T5AE8 7879:213 JLINK_ClrBPEx(BPHandle = 0x0000000D)  returns 0x00 (0000ms, 33441ms total)
T5AE8 7879:213 JLINK_ReadReg(R0)  returns 0x00000000 (0000ms, 33441ms total)
T5AE8 7879:213 JLINK_WriteMem(0x20000218, 0x01E8 Bytes, ...) - Data: 00 20 08 49 08 70 00 BF 23 E7 00 00 2D 00 00 20 ... -- CPU_WriteMem(488 bytes @ 0x20000218)  returns 0x1E8 (0004ms, 33445ms total)
T5AE8 7879:217 JLINK_WriteMem(0x20000400, 0x0018 Bytes, ...) - Data: 0A 25 29 46 30 46 FE F7 A6 FF C5 B2 0A 20 68 43 ... -- CPU_WriteMem(24 bytes @ 0x20000400)  returns 0x18 (0001ms, 33446ms total)
T5AE8 7879:218 JLINK_WriteReg(R0, 0x00001200)  returns 0x00 (0000ms, 33446ms total)
T5AE8 7879:218 JLINK_WriteReg(R1, 0x00000200)  returns 0x00 (0000ms, 33446ms total)
T5AE8 7879:218 JLINK_WriteReg(R2, 0x20000218)  returns 0x00 (0000ms, 33446ms total)
T5AE8 7879:218 JLINK_WriteReg(R3, 0x00000000)  returns 0x00 (0000ms, 33446ms total)
T5AE8 7879:218 JLINK_WriteReg(R4, 0x00000000)  returns 0x00 (0000ms, 33446ms total)
T5AE8 7879:218 JLINK_WriteReg(R5, 0x00000000)  returns 0x00 (0000ms, 33446ms total)
T5AE8 7879:218 JLINK_WriteReg(R6, 0x00000000)  returns 0x00 (0000ms, 33446ms total)
T5AE8 7879:218 JLINK_WriteReg(R7, 0x00000000)  returns 0x00 (0000ms, 33446ms total)
T5AE8 7879:218 JLINK_WriteReg(R8, 0x00000000)  returns 0x00 (0001ms, 33447ms total)
T5AE8 7879:219 JLINK_WriteReg(R9, 0x20000214)  returns 0x00 (0000ms, 33447ms total)
T5AE8 7879:219 JLINK_WriteReg(R10, 0x00000000)  returns 0x00 (0000ms, 33447ms total)
T5AE8 7879:219 JLINK_WriteReg(R11, 0x00000000)  returns 0x00 (0000ms, 33447ms total)
T5AE8 7879:219 JLINK_WriteReg(R12, 0x00000000)  returns 0x00 (0000ms, 33447ms total)
T5AE8 7879:219 JLINK_WriteReg(R13 (SP), 0x20001000)  returns 0x00 (0000ms, 33447ms total)
T5AE8 7879:219 JLINK_WriteReg(R14, 0x20000001)  returns 0x00 (0000ms, 33447ms total)
T5AE8 7879:219 JLINK_WriteReg(R15 (PC), 0x20000182)  returns 0x00 (0000ms, 33447ms total)
T5AE8 7879:219 JLINK_WriteReg(XPSR, 0x01000000)  returns 0x00 (0000ms, 33447ms total)
T5AE8 7879:219 JLINK_WriteReg(MSP, 0x20001000)  returns 0x00 (0000ms, 33447ms total)
T5AE8 7879:219 JLINK_WriteReg(PSP, 0x20001000)  returns 0x00 (0000ms, 33447ms total)
T5AE8 7879:219 JLINK_WriteReg(CFBP, 0x00000000)  returns 0x00 (0000ms, 33447ms total)
T5AE8 7879:219 JLINK_SetBPEx(Addr = 0x20000000, Type = 0xFFFFFFF2)  returns 0x0000000E (0000ms, 33447ms total)
T5AE8 7879:219 JLINK_Go() -- CPU_ReadMem(4 bytes @ 0xE0001000) -- CPU_WriteMem(4 bytes @ 0xE0001000) (0005ms, 33452ms total)
T5AE8 7879:224 JLINK_IsHalted()  returns FALSE (0001ms, 33453ms total)
T5AE8 7879:231 JLINK_IsHalted()  returns FALSE (0001ms, 33453ms total)
T5AE8 7879:234 JLINK_IsHalted()  returns FALSE (0001ms, 33453ms total)
T5AE8 7879:237 JLINK_IsHalted()  returns FALSE (0000ms, 33452ms total)
T5AE8 7879:239 JLINK_IsHalted()  returns FALSE (0001ms, 33453ms total)
T5AE8 7879:242 JLINK_IsHalted() -- CPU_ReadMem(2 bytes @ 0x20000000)  returns TRUE (0004ms, 33456ms total)
T5AE8 7879:246 JLINK_ReadReg(R15 (PC))  returns 0x20000000 (0000ms, 33452ms total)
T5AE8 7879:246 JLINK_ClrBPEx(BPHandle = 0x0000000E)  returns 0x00 (0000ms, 33452ms total)
T5AE8 7879:246 JLINK_ReadReg(R0)  returns 0x00000000 (0000ms, 33452ms total)
T5AE8 7879:247 JLINK_WriteMem(0x20000218, 0x01E8 Bytes, ...) - Data: 17 48 00 78 B0 42 09 D9 01 27 AF 40 01 21 38 46 ... -- CPU_WriteMem(488 bytes @ 0x20000218)  returns 0x1E8 (0003ms, 33455ms total)
T5AE8 7879:250 JLINK_WriteMem(0x20000400, 0x0018 Bytes, ...) - Data: 02 E0 01 20 09 49 08 70 00 20 07 49 08 70 8D 20 ... -- CPU_WriteMem(24 bytes @ 0x20000400)  returns 0x18 (0001ms, 33456ms total)
T5AE8 7879:251 JLINK_WriteReg(R0, 0x00001400)  returns 0x00 (0000ms, 33456ms total)
